--- file type: CFG ---
Substation85,Device85,2013
7,4A,3D
1,LINE_A_IL1,,,A,1,0,0,-99998,99998,2000,1,P
2,LINE_A_IL2,,,A,1,0,0,-99998,99998,2000,1,P
3,LINE_A_IL3,,,A,1,0,0,-99998,99998,2000,1,P
4,LINE_A_IN,,,A, 1,0,0,-99998,99998,2000,1,P
1,PHS-STFWL1,,,0
2,PHS-STFWL2,,,0
3,PHS-STFWPE,,,0
50
1
1000,10
21/07/2014,17:18:43.143033
21/07/2014,17:18:43.443032
ASCII
1
0,0
0,0
--- file type: INF ---
--- file type: HDR ---
--- file type: DAT ASCII ---
1,     0, 8965, -6232, -3178, -36, 0, 0, 0
2,  1000, 9112, -3751, -5940, -14, 0, 0, 1
3,  2000, 8340,  -886, -8103,  12, 0, 1, 0
4,  3000, 6749,  2061, -9475,  28, 0, 1, 1
5,  4000, 4482,  4818, -9954,   6, 1, 0, 0
6,  5000, 1777,  7117, -9449,   6, 1, 0, 1
7,  6000,-1082,  8724, -8004,  43, 1, 1, 0
8,  7000,-3857,  9466, -5767,  52, 1, 1, 1
9,  8000,-6271,  9265, -2960,  28, 0, 0, 0
10, 9000,-8077,  8159,   125,  -8, 0, 0, 1
